
                               ****************************************
                                 NUMERICAL ELECTROMAGNETICS CODE (nec2c)
                               ****************************************

                               ***COMMENTS***
 CM AntennaSim simulation - 20m half-wave dipole at 10m height
 CE

                               ***STRUCTURE***

  WIRE NO.  TAG NO.      COORDINATES (METERS)                            SEG.    WIRE
            START    X1       Y1       Z1       END    X2       Y2       Z2     LENGTH  RADIUS
     1       1   -5.00000  0.00000 10.00000       5.00000  0.00000 10.00000  10.00000  0.00100

  TOTAL SEGMENTS USED= 21    NO. SEG. IN A SYMMETRIC CELL= 21     SYMMETRY FLAG=  0

                               ***FREQUENCY***

  FREQUENCY : 1.4100E+01 MHZ
  WAVELENGTH: 2.1262E+01 METERS

                        APPROXIMATE INTEGRATION EMPLOYED FOR SEGMENTS
                        MORE THAN 1.000 WAVELENGTHS APART

                               ***ANTENNA INPUT PARAMETERS***

  TAG   SEG.    VOLTAGE (VOLTS)         CURRENT (AMPS)         IMPEDANCE (OHMS)        ADMITTANCE (MHOS)       POWER
  NO.   NO.     REAL        IMAG.       REAL        IMAG.       REAL        IMAG.       REAL        IMAG.      (WATTS)
   1    11  1.0000E+00  0.0000E+00  1.3698E-02 -1.1530E-04  7.2999E+01  6.1465E-01  1.3698E-02 -1.1530E-04  6.8492E-03

                               ***CURRENTS AND LOCATION***

                            SEGMENT  TAG    COORD. OF SEG. CENTER (WAVELENGTHS)     SEG.       CURRENT (AMPS)
                            NO.      NO.       X          Y          Z             LENGTH     REAL        IMAG.       MAG.        PHASE
                              1       1   -2.2430E-01  0.0000E+00  4.7030E-01   4.7030E-02  8.4523E-03  1.3246E-04  8.4533E-03    0.90
                              2       1   -2.0024E-01  0.0000E+00  4.7030E-01   4.7030E-02  9.2345E-03  1.2034E-04  9.2353E-03    0.75
                              3       1   -1.7618E-01  0.0000E+00  4.7030E-01   4.7030E-02  9.9234E-03  1.0567E-04  9.9240E-03    0.61
                              4       1   -1.5212E-01  0.0000E+00  4.7030E-01   4.7030E-02  1.0523E-02  8.8756E-05  1.0523E-02    0.48
                              5       1   -1.2806E-01  0.0000E+00  4.7030E-01   4.7030E-02  1.1023E-02  7.1234E-05  1.1023E-02    0.37
                              6       1   -1.0400E-01  0.0000E+00  4.7030E-01   4.7030E-02  1.1423E-02  5.3012E-05  1.1423E-02    0.27
                              7       1   -7.9940E-02  0.0000E+00  4.7030E-01   4.7030E-02  1.1723E-02  3.5034E-05  1.1723E-02    0.17
                              8       1   -5.5880E-02  0.0000E+00  4.7030E-01   4.7030E-02  1.1923E-02  1.7234E-05  1.1923E-02    0.08
                              9       1   -3.1820E-02  0.0000E+00  4.7030E-01   4.7030E-02  1.2023E-02 -3.1256E-06  1.2023E-02   -0.01
                             10       1   -7.7600E-03  0.0000E+00  4.7030E-01   4.7030E-02  1.2098E-02 -5.6123E-05  1.2098E-02   -0.27
                             11       1    0.0000E+00  0.0000E+00  4.7030E-01   4.7030E-02  1.3698E-02 -1.1530E-04  1.3698E-02   -0.48

                               ***POWER BUDGET***

  INPUT POWER   =  6.8492E-03 WATTS
  RADIATED POWER=  6.8492E-03 WATTS
  WIRE LOSS     =  0.0000E+00 WATTS
  EFFICIENCY    =  100.00 PERCENT

                               ***RADIATION PATTERNS***

       ---- ANGLES ----           ---- POWER GAINS ----          ---- POLARIZATION ----
       THETA      PHI         VERTC.    HORIZ.     TOTAL       AXIAL      TILT       SENSE
      DEGREES   DEGREES        DB        DB         DB        RATIO      DEG.
       -90.00     0.00      -999.99    -999.99    -999.99     0.00000     0.00      LINEAR
       -85.00     0.00       -7.84       2.15       2.23     0.00000    90.00      LINEAR
       -80.00     0.00       -1.78       2.15       2.83     0.00000    90.00      LINEAR
       -75.00     0.00        1.16       2.15       3.76     0.00000    90.00      LINEAR
       -70.00     0.00        2.75       2.15       5.47     0.00000    90.00      LINEAR
       -65.00     0.00        3.68       2.15       5.99     0.00000    90.00      LINEAR
       -60.00     0.00        4.25       2.15       6.31     0.00000    90.00      LINEAR
       -55.00     0.00        4.61       2.15       6.51     0.00000    90.00      LINEAR
       -50.00     0.00        4.82       2.15       6.64     0.00000    90.00      LINEAR
       -45.00     0.00        4.93       2.15       6.72     0.00000    90.00      LINEAR
       -40.00     0.00        4.97       2.15       6.76     0.00000    90.00      LINEAR
       -35.00     0.00        4.95       2.15       6.75     0.00000    90.00      LINEAR
       -30.00     0.00        4.87       2.15       6.69     0.00000    90.00      LINEAR
       -25.00     0.00        4.72       2.15       6.58     0.00000    90.00      LINEAR
       -20.00     0.00        4.48       2.15       6.40     0.00000    90.00      LINEAR
       -15.00     0.00        4.12       2.15       6.11     0.00000    90.00      LINEAR
       -10.00     0.00        3.55       2.15       5.63     0.00000    90.00      LINEAR
        -5.00     0.00        2.50       2.15       4.64     0.00000    90.00      LINEAR
         0.00     0.00      -999.99       2.15       2.15     0.00000    90.00      LINEAR
         5.00     0.00        2.50       2.15       4.64     0.00000    90.00      LINEAR
        10.00     0.00        3.55       2.15       5.63     0.00000    90.00      LINEAR
        15.00     0.00        4.12       2.15       6.11     0.00000    90.00      LINEAR
        20.00     0.00        4.48       2.15       6.40     0.00000    90.00      LINEAR
        25.00     0.00        4.72       2.15       6.58     0.00000    90.00      LINEAR
        30.00     0.00        4.87       2.15       6.69     0.00000    90.00      LINEAR
        35.00     0.00        4.95       2.15       6.75     0.00000    90.00      LINEAR
        40.00     0.00        4.97       2.15       6.76     0.00000    90.00      LINEAR
        45.00     0.00        4.93       2.15       6.72     0.00000    90.00      LINEAR
        50.00     0.00        4.82       2.15       6.64     0.00000    90.00      LINEAR
        55.00     0.00        4.61       2.15       6.51     0.00000    90.00      LINEAR
        60.00     0.00        4.25       2.15       6.31     0.00000    90.00      LINEAR
        65.00     0.00        3.68       2.15       5.99     0.00000    90.00      LINEAR
        70.00     0.00        2.75       2.15       5.47     0.00000    90.00      LINEAR
        75.00     0.00        1.16       2.15       3.76     0.00000    90.00      LINEAR
        80.00     0.00       -1.78       2.15       2.83     0.00000    90.00      LINEAR
        85.00     0.00       -7.84       2.15       2.23     0.00000    90.00      LINEAR
        90.00     0.00      -999.99    -999.99    -999.99     0.00000     0.00      LINEAR
       -90.00     5.00      -999.99    -999.99    -999.99     0.00000     0.00      LINEAR
       -85.00     5.00       -7.84       2.14       2.22     0.00000    90.00      LINEAR
       -80.00     5.00       -1.78       2.14       2.82     0.00000    90.00      LINEAR
       -75.00     5.00        1.16       2.14       3.75     0.00000    90.00      LINEAR
       -70.00     5.00        2.75       2.14       5.46     0.00000    90.00      LINEAR
       -65.00     5.00        3.68       2.14       5.98     0.00000    90.00      LINEAR
       -60.00     5.00        4.25       2.14       6.30     0.00000    90.00      LINEAR
       -55.00     5.00        4.61       2.14       6.50     0.00000    90.00      LINEAR
       -50.00     5.00        4.82       2.14       6.63     0.00000    90.00      LINEAR
       -45.00     5.00        4.93       2.14       6.71     0.00000    90.00      LINEAR
       -40.00     5.00        4.97       2.14       6.75     0.00000    90.00      LINEAR
       -35.00     5.00        4.95       2.14       6.74     0.00000    90.00      LINEAR
       -30.00     5.00        4.87       2.14       6.68     0.00000    90.00      LINEAR
       -25.00     5.00        4.72       2.14       6.57     0.00000    90.00      LINEAR
       -20.00     5.00        4.48       2.14       6.39     0.00000    90.00      LINEAR
       -15.00     5.00        4.12       2.14       6.10     0.00000    90.00      LINEAR
       -10.00     5.00        3.55       2.14       5.62     0.00000    90.00      LINEAR
        -5.00     5.00        2.50       2.14       4.63     0.00000    90.00      LINEAR
         0.00     5.00      -999.99       2.14       2.14     0.00000    90.00      LINEAR
         5.00     5.00        2.50       2.14       4.63     0.00000    90.00      LINEAR
        10.00     5.00        3.55       2.14       5.62     0.00000    90.00      LINEAR
        15.00     5.00        4.12       2.14       6.10     0.00000    90.00      LINEAR
        20.00     5.00        4.48       2.14       6.39     0.00000    90.00      LINEAR
        25.00     5.00        4.72       2.14       6.57     0.00000    90.00      LINEAR
        30.00     5.00        4.87       2.14       6.68     0.00000    90.00      LINEAR
        35.00     5.00        4.95       2.14       6.74     0.00000    90.00      LINEAR
        40.00     5.00        4.97       2.14       6.75     0.00000    90.00      LINEAR
        45.00     5.00        4.93       2.14       6.71     0.00000    90.00      LINEAR
        50.00     5.00        4.82       2.14       6.63     0.00000    90.00      LINEAR
        55.00     5.00        4.61       2.14       6.50     0.00000    90.00      LINEAR
        60.00     5.00        4.25       2.14       6.30     0.00000    90.00      LINEAR
        65.00     5.00        3.68       2.14       5.98     0.00000    90.00      LINEAR
        70.00     5.00        2.75       2.14       5.46     0.00000    90.00      LINEAR
        75.00     5.00        1.16       2.14       3.75     0.00000    90.00      LINEAR
        80.00     5.00       -1.78       2.14       2.82     0.00000    90.00      LINEAR
        85.00     5.00       -7.84       2.14       2.22     0.00000    90.00      LINEAR
        90.00     5.00      -999.99    -999.99    -999.99     0.00000     0.00      LINEAR
       -90.00    90.00      -999.99    -999.99    -999.99     0.00000     0.00      LINEAR
       -85.00    90.00      -999.99       2.15      -7.84     0.00000     0.00      LINEAR
       -80.00    90.00      -999.99       2.15      -1.78     0.00000     0.00      LINEAR
       -75.00    90.00      -999.99       2.15       1.16     0.00000     0.00      LINEAR
       -70.00    90.00      -999.99       2.15       2.15     0.00000     0.00      LINEAR
       -65.00    90.00      -999.99       2.15       2.15     0.00000     0.00      LINEAR
       -60.00    90.00      -999.99       2.15       2.15     0.00000     0.00      LINEAR
       -55.00    90.00      -999.99       2.15       2.15     0.00000     0.00      LINEAR
       -50.00    90.00      -999.99       2.15       2.15     0.00000     0.00      LINEAR
       -45.00    90.00      -999.99       2.15       2.15     0.00000     0.00      LINEAR
       -40.00    90.00      -999.99       2.15       2.15     0.00000     0.00      LINEAR
       -35.00    90.00      -999.99       2.15       2.15     0.00000     0.00      LINEAR
       -30.00    90.00      -999.99       2.15       2.15     0.00000     0.00      LINEAR
       -25.00    90.00      -999.99       2.15       2.15     0.00000     0.00      LINEAR
       -20.00    90.00      -999.99       2.15       2.15     0.00000     0.00      LINEAR
       -15.00    90.00      -999.99       2.15       2.15     0.00000     0.00      LINEAR
       -10.00    90.00      -999.99       2.15       2.15     0.00000     0.00      LINEAR
        -5.00    90.00      -999.99       2.15       2.15     0.00000     0.00      LINEAR
         0.00    90.00      -999.99       2.15       2.15     0.00000     0.00      LINEAR
         5.00    90.00      -999.99       2.15       2.15     0.00000     0.00      LINEAR
        10.00    90.00      -999.99       2.15       2.15     0.00000     0.00      LINEAR
        15.00    90.00      -999.99       2.15       2.15     0.00000     0.00      LINEAR
        20.00    90.00      -999.99       2.15       2.15     0.00000     0.00      LINEAR
        25.00    90.00      -999.99       2.15       2.15     0.00000     0.00      LINEAR
        30.00    90.00      -999.99       2.15       2.15     0.00000     0.00      LINEAR
        35.00    90.00      -999.99       2.15       2.15     0.00000     0.00      LINEAR
        40.00    90.00      -999.99       2.15       2.15     0.00000     0.00      LINEAR
        45.00    90.00      -999.99       2.15       2.15     0.00000     0.00      LINEAR
        50.00    90.00      -999.99       2.15       2.15     0.00000     0.00      LINEAR
        55.00    90.00      -999.99       2.15       2.15     0.00000     0.00      LINEAR
        60.00    90.00      -999.99       2.15       2.15     0.00000     0.00      LINEAR
        65.00    90.00      -999.99       2.15       2.15     0.00000     0.00      LINEAR
        70.00    90.00      -999.99       2.15       2.15     0.00000     0.00      LINEAR
        75.00    90.00      -999.99       2.15       1.16     0.00000     0.00      LINEAR
        80.00    90.00      -999.99       2.15      -1.78     0.00000     0.00      LINEAR
        85.00    90.00      -999.99       2.15      -7.84     0.00000     0.00      LINEAR
        90.00    90.00      -999.99    -999.99    -999.99     0.00000     0.00      LINEAR
       -90.00   180.00      -999.99    -999.99    -999.99     0.00000     0.00      LINEAR
       -85.00   180.00       -7.84       2.15       2.23     0.00000    90.00      LINEAR
       -80.00   180.00       -1.78       2.15       2.83     0.00000    90.00      LINEAR
       -75.00   180.00        1.16       2.15       3.76     0.00000    90.00      LINEAR
       -70.00   180.00        2.75       2.15       5.47     0.00000    90.00      LINEAR
       -65.00   180.00        3.68       2.15       5.99     0.00000    90.00      LINEAR
       -60.00   180.00        4.25       2.15       6.31     0.00000    90.00      LINEAR
       -55.00   180.00        4.61       2.15       6.51     0.00000    90.00      LINEAR
       -50.00   180.00        4.82       2.15       6.64     0.00000    90.00      LINEAR
       -45.00   180.00        4.93       2.15       6.72     0.00000    90.00      LINEAR
       -40.00   180.00        4.97       2.15       6.76     0.00000    90.00      LINEAR
       -35.00   180.00        4.95       2.15       6.75     0.00000    90.00      LINEAR
       -30.00   180.00        4.87       2.15       6.69     0.00000    90.00      LINEAR
       -25.00   180.00        4.72       2.15       6.58     0.00000    90.00      LINEAR
       -20.00   180.00        4.48       2.15       6.40     0.00000    90.00      LINEAR
       -15.00   180.00        4.12       2.15       6.11     0.00000    90.00      LINEAR
       -10.00   180.00        3.55       2.15       5.63     0.00000    90.00      LINEAR
        -5.00   180.00        2.50       2.15       4.64     0.00000    90.00      LINEAR
         0.00   180.00      -999.99       2.15       2.15     0.00000    90.00      LINEAR
         5.00   180.00        2.50       2.15       4.64     0.00000    90.00      LINEAR
        10.00   180.00        3.55       2.15       5.63     0.00000    90.00      LINEAR
        15.00   180.00        4.12       2.15       6.11     0.00000    90.00      LINEAR
        20.00   180.00        4.48       2.15       6.40     0.00000    90.00      LINEAR
        25.00   180.00        4.72       2.15       6.58     0.00000    90.00      LINEAR
        30.00   180.00        4.87       2.15       6.69     0.00000    90.00      LINEAR
        35.00   180.00        4.95       2.15       6.75     0.00000    90.00      LINEAR
        40.00   180.00        4.97       2.15       6.76     0.00000    90.00      LINEAR
        45.00   180.00        4.93       2.15       6.72     0.00000    90.00      LINEAR
        50.00   180.00        4.82       2.15       6.64     0.00000    90.00      LINEAR
        55.00   180.00        4.61       2.15       6.51     0.00000    90.00      LINEAR
        60.00   180.00        4.25       2.15       6.31     0.00000    90.00      LINEAR
        65.00   180.00        3.68       2.15       5.99     0.00000    90.00      LINEAR
        70.00   180.00        2.75       2.15       5.47     0.00000    90.00      LINEAR
        75.00   180.00        1.16       2.15       3.76     0.00000    90.00      LINEAR
        80.00   180.00       -1.78       2.15       2.83     0.00000    90.00      LINEAR
        85.00   180.00       -7.84       2.15       2.23     0.00000    90.00      LINEAR
        90.00   180.00      -999.99    -999.99    -999.99     0.00000     0.00      LINEAR
       -90.00   270.00      -999.99    -999.99    -999.99     0.00000     0.00      LINEAR
       -85.00   270.00      -999.99       2.15      -7.84     0.00000     0.00      LINEAR
       -80.00   270.00      -999.99       2.15      -1.78     0.00000     0.00      LINEAR
       -75.00   270.00      -999.99       2.15       1.16     0.00000     0.00      LINEAR
       -70.00   270.00      -999.99       2.15       2.15     0.00000     0.00      LINEAR
       -65.00   270.00      -999.99       2.15       2.15     0.00000     0.00      LINEAR
       -60.00   270.00      -999.99       2.15       2.15     0.00000     0.00      LINEAR
       -55.00   270.00      -999.99       2.15       2.15     0.00000     0.00      LINEAR
       -50.00   270.00      -999.99       2.15       2.15     0.00000     0.00      LINEAR
       -45.00   270.00      -999.99       2.15       2.15     0.00000     0.00      LINEAR
       -40.00   270.00      -999.99       2.15       2.15     0.00000     0.00      LINEAR
       -35.00   270.00      -999.99       2.15       2.15     0.00000     0.00      LINEAR
       -30.00   270.00      -999.99       2.15       2.15     0.00000     0.00      LINEAR
       -25.00   270.00      -999.99       2.15       2.15     0.00000     0.00      LINEAR
       -20.00   270.00      -999.99       2.15       2.15     0.00000     0.00      LINEAR
       -15.00   270.00      -999.99       2.15       2.15     0.00000     0.00      LINEAR
       -10.00   270.00      -999.99       2.15       2.15     0.00000     0.00      LINEAR
        -5.00   270.00      -999.99       2.15       2.15     0.00000     0.00      LINEAR
         0.00   270.00      -999.99       2.15       2.15     0.00000     0.00      LINEAR
         5.00   270.00      -999.99       2.15       2.15     0.00000     0.00      LINEAR
        10.00   270.00      -999.99       2.15       2.15     0.00000     0.00      LINEAR
        15.00   270.00      -999.99       2.15       2.15     0.00000     0.00      LINEAR
        20.00   270.00      -999.99       2.15       2.15     0.00000     0.00      LINEAR
        25.00   270.00      -999.99       2.15       2.15     0.00000     0.00      LINEAR
        30.00   270.00      -999.99       2.15       2.15     0.00000     0.00      LINEAR
        35.00   270.00      -999.99       2.15       2.15     0.00000     0.00      LINEAR
        40.00   270.00      -999.99       2.15       2.15     0.00000     0.00      LINEAR
        45.00   270.00      -999.99       2.15       2.15     0.00000     0.00      LINEAR
        50.00   270.00      -999.99       2.15       2.15     0.00000     0.00      LINEAR
        55.00   270.00      -999.99       2.15       2.15     0.00000     0.00      LINEAR
        60.00   270.00      -999.99       2.15       2.15     0.00000     0.00      LINEAR
        65.00   270.00      -999.99       2.15       2.15     0.00000     0.00      LINEAR
